
T5D98 000:558 SEGGER J-Link V4.84a Log File (0001ms, 0263ms total)
T5D98 000:558 DLL Compiled: Apr  4 2014 18:02:19 (0001ms, 0263ms total)
T5D98 000:558 Logging started @ 2017-03-22 20:14 (0001ms, 0263ms total)
T5D98 000:559 JLINK_SetWarnOutHandler(...) (0000ms, 0263ms total)
T5D98 000:559 JLINK_OpenEx(...)
Firmware: J-Link ARM-OB STM32 compiled Aug 22 2012 19:52:04
Hardware: V7.00
S/N: 20090928
Feature(s): RDI,FlashDL,FlashBP,JFlash,GDBFull  returns O.K. (0264ms, 0527ms total)
T5D98 000:823 JLINK_SetErrorOutHandler(...) (0000ms, 0527ms total)
T5D98 000:823 JLINK_ExecCommand("ProjectFile = "C:\Users\snow\Desktop\GitHub\HeilsCare-chassis\Start\JLinkSettings.ini"", ...)  returns 0x00 (0001ms, 0528ms total)
T5D98 000:841 JLINK_ExecCommand("Device = STM32F103ZE", ...)Device "STM32F103ZE" selected (512 KB flash, 64 KB RAM).  returns 0x00 (0023ms, 0551ms total)
T5D98 000:864 JLINK_ExecCommand("DisableConnectionTimeout", ...)  returns 0x01 (0000ms, 0551ms total)
T5D98 000:864 JLINK_GetHardwareVersion()  returns 0x11170 (0000ms, 0551ms total)
T5D98 000:864 JLINK_GetDLLVersion()  returns 48401 (0000ms, 0551ms total)
T5D98 000:864 JLINK_GetFirmwareString(...) (0000ms, 0551ms total)
T5D98 000:887 JLINK_GetDLLVersion()  returns 48401 (0000ms, 0551ms total)
T5D98 000:887 JLINK_GetCompileDateTime() (0001ms, 0552ms total)
T5D98 000:893 JLINK_GetFirmwareString(...) (0000ms, 0552ms total)
T5D98 000:898 JLINK_GetHardwareVersion()  returns 0x11170 (0000ms, 0552ms total)
T5D98 000:926 JLINK_TIF_Select(JLINKARM_TIF_SWD)  returns 0x00 (0000ms, 0552ms total)
T5D98 000:927 JLINK_SetSpeed(500) (0000ms, 0553ms total)
T5D98 000:927 JLINK_GetId() >0x108 TIF>Found SWD-DP with ID 0x1BA01477 >0x0D TIF> >0x28 TIF> >0x0D TIF> >0x28 TIF> >0x0D TIF> >0x21 TIF> >0x0D TIF> >0x28 TIF> >0x0D TIF> >0x28 TIF> >0x0D TIF> >0x28 TIF> >0x0D TIF> >0x21 TIF> >0x0D TIF> >0x21 TIF> >0x0D TIF> >0x28 TIF> >0x0D TIF> >0x21 TIF> >0x0D TIF> >0x21 TIF> >0x108 TIF>Found SWD-DP with ID 0x1BA01477 >0x0D TIF> >0x21 TIF> >0x0D TIF> >0x28 TIF> >0x0D TIF> >0x28 TIF> >0x0D TIF> >0x21 TIF> >0x0D TIF> >0x28 TIF> >0x0D TIF> >0x21 TIF> >0x0D TIF> >0x21 TIF>
 >0x0D TIF> >0x21 TIF> >0x0D TIF> >0x21 TIF> >0x0D TIF> >0x28 TIF> >0x0D TIF> >0x28 TIF> >0x0D TIF> >0x21 TIF> >0x0D TIF> >0x28 TIF> >0x0D TIF> >0x28 TIF> >0x0D TIF> >0x28 TIF> >0x0D TIF> >0x21 TIF> >0x0D TIF> >0x21 TIF> >0x0D TIF> >0x28 TIF> >0x0D TIF> >0x21 TIF> >0x0D TIF> >0x21 TIF>Found Cortex-M3 r1p1, Little endian. -- CPU_WriteMem(4 bytes @ 0xE0002000) -- CPU_ReadMem(4 bytes @ 0xE000EDF0) -- CPU_ReadMem(4 bytes @ 0xE0002000)FPUnit: 6 code (BP) slots and 2 literal slots
 -- CPU_ReadMem(4 bytes @ 0xE000EDFC) -- CPU_ReadMem(4 bytes @ 0xE0001000) -- CPU_WriteMem(4 bytes @ 0xE0001000) -- CPU_ReadMem(4 bytes @ 0xE00FF010)TPIU fitted. -- CPU_ReadMem(4 bytes @ 0xE00FF014)ETM fitted. -- CPU_ReadMem(4 bytes @ 0xE00FF018) >0x0D TIF> >0x21 TIF>  returns 0x1BA01477 (0048ms, 0601ms total)
T5D98 000:975 JLINK_GetDeviceFamily()  returns 3 (0000ms, 0601ms total)
T5D98 000:979 JLINK_ReadMem (0xE00FFFF0, 0x0010 Bytes, ...) -- CPU is running -- CPU_ReadMem(16 bytes @ 0xE00FFFF0) -- Data:  0D 00 00 00 10 00 00 00 05 00 00 00 B1 00 00 00  returns 0x00 (0002ms, 0603ms total)
T5D98 000:981 JLINK_ReadMem (0xE00FFFD0, 0x0020 Bytes, ...) -- CPU is running -- CPU_ReadMem(32 bytes @ 0xE00FFFD0) -- Data:  00 00 00 00 00 00 00 00 00 00 00 00 00 00 00 00 ...  returns 0x00 (0002ms, 0605ms total)
T5D98 000:983 JLINK_ReadMem (0xE00FF000, 0x0018 Bytes, ...) -- CPU is running -- CPU_ReadMem(24 bytes @ 0xE00FF000) -- Data:  03 F0 F0 FF 03 20 F0 FF 03 30 F0 FF 03 10 F0 FF ...  returns 0x00 (0002ms, 0607ms total)
T5D98 000:985 JLINK_ReadMemU32(0xE000ED00, 0x0001 Items, ...) -- CPU is running -- CPU_ReadMem(4 bytes @ 0xE000ED00) -- Data:  31 C2 1F 41  returns 0x01 (0002ms, 0609ms total)
T5D98 000:987 JLINK_SetResetType(JLINKARM_RESET_TYPE_NORMAL)  returns JLINKARM_RESET_TYPE_NORMAL (0000ms, 0609ms total)
T5D98 000:987 JLINK_Reset() -- CPU is running -- CPU_WriteMem(4 bytes @ 0xE000EDF0) -- CPU is running -- CPU_WriteMem(4 bytes @ 0xE000EDFC) >0x35 TIF> -- CPU is running -- CPU_WriteMem(4 bytes @ 0xE000ED0C) -- CPU is running -- CPU_ReadMem(4 bytes @ 0xE000EDF0) -- CPU is running -- CPU_ReadMem(4 bytes @ 0xE000EDF0) -- CPU is running -- CPU_WriteMem(4 bytes @ 0xE000EDF0) -- CPU is running -- CPU_WriteMem(4 bytes @ 0xE000EDFC) -- CPU is running -- CPU_ReadMem(4 bytes @ 0xE000EDF0)
 -- CPU_WriteMem(4 bytes @ 0xE0002000) -- CPU_ReadMem(4 bytes @ 0xE000EDFC) -- CPU_ReadMem(4 bytes @ 0xE0001000) (0034ms, 0643ms total)
T5D98 001:021 JLINK_Halt()  returns 0x00 (0000ms, 0643ms total)
T5D98 001:021 JLINK_IsHalted()  returns TRUE (0000ms, 0643ms total)
T5D98 001:021 JLINK_ReadMemU32(0xE000EDF0, 0x0001 Items, ...) -- CPU_ReadMem(4 bytes @ 0xE000EDF0) -- Data:  03 00 03 00  returns 0x01 (0002ms, 0645ms total)
T5D98 001:023 JLINK_WriteU32(0xE000EDF0, 0xA05F0003) -- CPU_WriteMem(4 bytes @ 0xE000EDF0)  returns 0x00 (0001ms, 0646ms total)
T5D98 001:024 JLINK_WriteU32(0xE000EDFC, 0x01000000) -- CPU_WriteMem(4 bytes @ 0xE000EDFC)  returns 0x00 (0001ms, 0647ms total)
T5D98 001:078 JLINK_GetHWStatus(...)  returns 0x00 (0000ms, 0647ms total)
T5D98 001:097 JLINK_GetNumBPUnits(Type = 0xFFFFFF00)  returns 0x06 (0001ms, 0648ms total)
T5D98 001:098 JLINK_GetNumBPUnits(Type = 0xF0)  returns 0x2000 (0000ms, 0648ms total)
T5D98 001:098 JLINK_GetNumWPUnits()  returns 0x04 (0000ms, 0648ms total)
T5D98 001:112 JLINK_GetSpeed()  returns 0x1F4 (0000ms, 0648ms total)
T5D98 001:117 JLINK_ReadMemU32(0xE000E004, 0x0001 Items, ...) -- CPU_ReadMem(4 bytes @ 0xE000E004) -- Data:  01 00 00 00  returns 0x01 (0001ms, 0649ms total)
T5D98 001:118 JLINK_ReadMemU32(0xE000E004, 0x0001 Items, ...) -- CPU_ReadMem(4 bytes @ 0xE000E004) -- Data:  01 00 00 00  returns 0x01 (0001ms, 0650ms total)
T5D98 001:120 JLINK_WriteMem(0xE0001000, 0x001C Bytes, ...) -- Data:  01 00 00 00 00 00 00 00 00 00 00 00 00 00 00 00 ... -- CPU_WriteMem(28 bytes @ 0xE0001000)  returns 0x1C (0002ms, 0652ms total)
T5D98 001:122 JLINK_ReadMem (0xE0001000, 0x001C Bytes, ...) -- CPU_ReadMem(28 bytes @ 0xE0001000) -- Data:  01 00 00 40 00 00 00 00 00 00 00 00 00 00 00 00 ...  returns 0x00 (0002ms, 0654ms total)
T5D98 001:124 JLINK_Halt()  returns 0x00 (0000ms, 0654ms total)
T5D98 001:124 JLINK_IsHalted()  returns TRUE (0000ms, 0654ms total)
T5D98 001:126 JLINK_WriteMem(0x20000000, 0x0164 Bytes, ...) -- Data:  00 BE 0A E0 0D 78 2D 06 68 40 08 24 40 00 00 D3 ... -- CPU_WriteMem(356 bytes @ 0x20000000)  returns 0x164 (0017ms, 0671ms total)
T5D98 001:143 JLINK_WriteReg(R0, 0x08000000)  returns 0x00 (0000ms, 0671ms total)
T5D98 001:143 JLINK_WriteReg(R1, 0x007A1200)  returns 0x00 (0000ms, 0671ms total)
T5D98 001:143 JLINK_WriteReg(R2, 0x00000001)  returns 0x00 (0000ms, 0671ms total)
T5D98 001:143 JLINK_WriteReg(R3, 0x00000000)  returns 0x00 (0000ms, 0671ms total)
T5D98 001:143 JLINK_WriteReg(R4, 0x00000000)  returns 0x00 (0000ms, 0671ms total)
T5D98 001:143 JLINK_WriteReg(R5, 0x00000000)  returns 0x00 (0000ms, 0671ms total)
T5D98 001:143 JLINK_WriteReg(R6, 0x00000000)  returns 0x00 (0000ms, 0671ms total)
T5D98 001:143 JLINK_WriteReg(R7, 0x00000000)  returns 0x00 (0000ms, 0671ms total)
T5D98 001:143 JLINK_WriteReg(R8, 0x00000000)  returns 0x00 (0000ms, 0671ms total)
T5D98 001:143 JLINK_WriteReg(R9, 0x20000160)  returns 0x00 (0000ms, 0671ms total)
T5D98 001:143 JLINK_WriteReg(R10, 0x00000000)  returns 0x00 (0000ms, 0671ms total)
T5D98 001:143 JLINK_WriteReg(R11, 0x00000000)  returns 0x00 (0000ms, 0671ms total)
T5D98 001:143 JLINK_WriteReg(R12, 0x00000000)  returns 0x00 (0000ms, 0671ms total)
T5D98 001:143 JLINK_WriteReg(R13 (SP), 0x20000800)  returns 0x00 (0000ms, 0671ms total)
T5D98 001:143 JLINK_WriteReg(R14, 0x20000001)  returns 0x00 (0000ms, 0671ms total)
T5D98 001:143 JLINK_WriteReg(R15 (PC), 0x20000038)  returns 0x00 (0000ms, 0671ms total)
T5D98 001:143 JLINK_WriteReg(XPSR, 0x01000000)  returns 0x00 (0001ms, 0672ms total)
T5D98 001:144 JLINK_WriteReg(MSP, 0x20000800)  returns 0x00 (0000ms, 0672ms total)
T5D98 001:144 JLINK_WriteReg(PSP, 0x20000800)  returns 0x00 (0000ms, 0672ms total)
T5D98 001:144 JLINK_WriteReg(CFBP, 0x00000000)  returns 0x00 (0000ms, 0672ms total)
T5D98 001:144 JLINK_SetBPEx(Addr = 0x20000000, Type = 0xFFFFFFF2) -- CPU_ReadMem(2 bytes @ 0x20000000)  returns 0x00000001 (0001ms, 0673ms total)
T5D98 001:145 JLINK_Go() -- CPU_WriteMem(2 bytes @ 0x20000000) -- CPU_WriteMem(4 bytes @ 0xE0002008) -- CPU_WriteMem(4 bytes @ 0xE000200C) -- CPU_WriteMem(4 bytes @ 0xE0002010) -- CPU_WriteMem(4 bytes @ 0xE0002014) -- CPU_WriteMem(4 bytes @ 0xE0002018) -- CPU_WriteMem(4 bytes @ 0xE000201C) -- CPU_WriteMem(4 bytes @ 0xE0001004) (0019ms, 0692ms total)
T5D98 001:164 JLINK_IsHalted() -- CPU_ReadMem(2 bytes @ 0x20000000)  returns TRUE (0013ms, 0705ms total)
T5D98 001:177 JLINK_ReadReg(R15 (PC))  returns 0x20000000 (0000ms, 0692ms total)
T5D98 001:177 JLINK_ClrBPEx(BPHandle = 0x00000001)  returns 0x00 (0000ms, 0692ms total)
T5D98 001:177 JLINK_ReadReg(R0)  returns 0x00000000 (0000ms, 0692ms total)
T5D98 001:177 JLINK_WriteReg(R0, 0x08000000)  returns 0x00 (0000ms, 0692ms total)
T5D98 001:177 JLINK_WriteReg(R1, 0x007A1200)  returns 0x00 (0001ms, 0693ms total)
T5D98 001:178 JLINK_WriteReg(R2, 0x00000001)  returns 0x00 (0000ms, 0693ms total)
T5D98 001:178 JLINK_WriteReg(R3, 0x00000000)  returns 0x00 (0000ms, 0693ms total)
T5D98 001:178 JLINK_WriteReg(R4, 0x00000000)  returns 0x00 (0000ms, 0693ms total)
T5D98 001:178 JLINK_WriteReg(R5, 0x00000000)  returns 0x00 (0000ms, 0693ms total)
T5D98 001:178 JLINK_WriteReg(R6, 0x00000000)  returns 0x00 (0000ms, 0693ms total)
T5D98 001:178 JLINK_WriteReg(R7, 0x00000000)  returns 0x00 (0000ms, 0693ms total)
T5D98 001:178 JLINK_WriteReg(R8, 0x00000000)  returns 0x00 (0000ms, 0693ms total)
T5D98 001:178 JLINK_WriteReg(R9, 0x20000160)  returns 0x00 (0000ms, 0693ms total)
T5D98 001:178 JLINK_WriteReg(R10, 0x00000000)  returns 0x00 (0000ms, 0693ms total)
T5D98 001:178 JLINK_WriteReg(R11, 0x00000000)  returns 0x00 (0000ms, 0693ms total)
T5D98 001:178 JLINK_WriteReg(R12, 0x00000000)  returns 0x00 (0000ms, 0693ms total)
T5D98 001:178 JLINK_WriteReg(R13 (SP), 0x20000800)  returns 0x00 (0000ms, 0693ms total)
T5D98 001:178 JLINK_WriteReg(R14, 0x20000001)  returns 0x00 (0000ms, 0693ms total)
T5D98 001:178 JLINK_WriteReg(R15 (PC), 0x2000007C)  returns 0x00 (0000ms, 0693ms total)
T5D98 001:178 JLINK_WriteReg(XPSR, 0x01000000)  returns 0x00 (0000ms, 0693ms total)
T5D98 001:178 JLINK_WriteReg(MSP, 0x20000800)  returns 0x00 (0000ms, 0693ms total)
T5D98 001:178 JLINK_WriteReg(PSP, 0x20000800)  returns 0x00 (0000ms, 0693ms total)
T5D98 001:178 JLINK_WriteReg(CFBP, 0x00000000)  returns 0x00 (0000ms, 0693ms total)
T5D98 001:178 JLINK_SetBPEx(Addr = 0x20000000, Type = 0xFFFFFFF2)  returns 0x00000002 (0000ms, 0693ms total)
T5D98 001:178 JLINK_Go() (0005ms, 0698ms total)
T5D98 001:183 JLINK_IsHalted()  returns FALSE (0001ms, 0699ms total)
T5D98 001:668 JLINK_IsHalted() -- CPU_ReadMem(2 bytes @ 0x20000000)  returns TRUE (0012ms, 0710ms total)
T5D98 001:680 JLINK_ReadReg(R15 (PC))  returns 0x20000000 (0000ms, 0698ms total)
T5D98 001:680 JLINK_ClrBPEx(BPHandle = 0x00000002)  returns 0x00 (0000ms, 0698ms total)
T5D98 001:680 JLINK_ReadReg(R0)  returns 0x00000000 (0000ms, 0698ms total)
T5D98 001:735 JLINK_WriteReg(R0, 0x00000001)  returns 0x00 (0000ms, 0698ms total)
T5D98 001:735 JLINK_WriteReg(R1, 0x007A1200)  returns 0x00 (0000ms, 0698ms total)
T5D98 001:735 JLINK_WriteReg(R2, 0x00000001)  returns 0x00 (0000ms, 0698ms total)
T5D98 001:735 JLINK_WriteReg(R3, 0x00000000)  returns 0x00 (0000ms, 0698ms total)
T5D98 001:735 JLINK_WriteReg(R4, 0x00000000)  returns 0x00 (0000ms, 0698ms total)
T5D98 001:735 JLINK_WriteReg(R5, 0x00000000)  returns 0x00 (0000ms, 0698ms total)
T5D98 001:735 JLINK_WriteReg(R6, 0x00000000)  returns 0x00 (0000ms, 0698ms total)
T5D98 001:735 JLINK_WriteReg(R7, 0x00000000)  returns 0x00 (0000ms, 0698ms total)
T5D98 001:735 JLINK_WriteReg(R8, 0x00000000)  returns 0x00 (0000ms, 0698ms total)
T5D98 001:735 JLINK_WriteReg(R9, 0x20000160)  returns 0x00 (0000ms, 0698ms total)
T5D98 001:735 JLINK_WriteReg(R10, 0x00000000)  returns 0x00 (0000ms, 0698ms total)
T5D98 001:735 JLINK_WriteReg(R11, 0x00000000)  returns 0x00 (0000ms, 0698ms total)
T5D98 001:735 JLINK_WriteReg(R12, 0x00000000)  returns 0x00 (0000ms, 0698ms total)
T5D98 001:735 JLINK_WriteReg(R13 (SP), 0x20000800)  returns 0x00 (0000ms, 0698ms total)
T5D98 001:735 JLINK_WriteReg(R14, 0x20000001)  returns 0x00 (0000ms, 0698ms total)
T5D98 001:735 JLINK_WriteReg(R15 (PC), 0x2000006A)  returns 0x00 (0000ms, 0698ms total)
T5D98 001:735 JLINK_WriteReg(XPSR, 0x01000000)  returns 0x00 (0000ms, 0698ms total)
T5D98 001:735 JLINK_WriteReg(MSP, 0x20000800)  returns 0x00 (0000ms, 0698ms total)
T5D98 001:736 JLINK_WriteReg(PSP, 0x20000800)  returns 0x00 (0000ms, 0698ms total)
T5D98 001:736 JLINK_WriteReg(CFBP, 0x00000000)  returns 0x00 (0000ms, 0698ms total)
T5D98 001:736 JLINK_SetBPEx(Addr = 0x20000000, Type = 0xFFFFFFF2)  returns 0x00000003 (0000ms, 0698ms total)
T5D98 001:736 JLINK_Go() (0004ms, 0702ms total)
T5D98 001:740 JLINK_IsHalted() -- CPU_ReadMem(2 bytes @ 0x20000000)  returns TRUE (0013ms, 0715ms total)
T5D98 001:753 JLINK_ReadReg(R15 (PC))  returns 0x20000000 (0000ms, 0702ms total)
T5D98 001:753 JLINK_ClrBPEx(BPHandle = 0x00000003)  returns 0x00 (0000ms, 0702ms total)
T5D98 001:753 JLINK_ReadReg(R0)  returns 0x00000000 (0000ms, 0702ms total)
T5D98 001:765 JLINK_WriteMem(0x20000000, 0x0164 Bytes, ...) -- Data:  00 BE 0A E0 0D 78 2D 06 68 40 08 24 40 00 00 D3 ... -- CPU_WriteMem(356 bytes @ 0x20000000)  returns 0x164 (0017ms, 0719ms total)
T5D98 001:782 JLINK_WriteReg(R0, 0x08000000)  returns 0x00 (0000ms, 0719ms total)
T5D98 001:782 JLINK_WriteReg(R1, 0x007A1200)  returns 0x00 (0000ms, 0719ms total)
T5D98 001:782 JLINK_WriteReg(R2, 0x00000002)  returns 0x00 (0000ms, 0719ms total)
T5D98 001:782 JLINK_WriteReg(R3, 0x00000000)  returns 0x00 (0000ms, 0719ms total)
T5D98 001:782 JLINK_WriteReg(R4, 0x00000000)  returns 0x00 (0000ms, 0719ms total)
T5D98 001:782 JLINK_WriteReg(R5, 0x00000000)  returns 0x00 (0000ms, 0719ms total)
T5D98 001:782 JLINK_WriteReg(R6, 0x00000000)  returns 0x00 (0000ms, 0719ms total)
T5D98 001:782 JLINK_WriteReg(R7, 0x00000000)  returns 0x00 (0000ms, 0719ms total)
T5D98 001:782 JLINK_WriteReg(R8, 0x00000000)  returns 0x00 (0000ms, 0719ms total)
T5D98 001:782 JLINK_WriteReg(R9, 0x20000160)  returns 0x00 (0000ms, 0719ms total)
T5D98 001:782 JLINK_WriteReg(R10, 0x00000000)  returns 0x00 (0001ms, 0720ms total)
T5D98 001:783 JLINK_WriteReg(R11, 0x00000000)  returns 0x00 (0000ms, 0720ms total)
T5D98 001:783 JLINK_WriteReg(R12, 0x00000000)  returns 0x00 (0000ms, 0720ms total)
T5D98 001:783 JLINK_WriteReg(R13 (SP), 0x20000800)  returns 0x00 (0000ms, 0720ms total)
T5D98 001:783 JLINK_WriteReg(R14, 0x20000001)  returns 0x00 (0000ms, 0720ms total)
T5D98 001:783 JLINK_WriteReg(R15 (PC), 0x20000038)  returns 0x00 (0000ms, 0720ms total)
T5D98 001:783 JLINK_WriteReg(XPSR, 0x01000000)  returns 0x00 (0000ms, 0720ms total)
T5D98 001:783 JLINK_WriteReg(MSP, 0x20000800)  returns 0x00 (0000ms, 0720ms total)
T5D98 001:783 JLINK_WriteReg(PSP, 0x20000800)  returns 0x00 (0000ms, 0720ms total)
T5D98 001:783 JLINK_WriteReg(CFBP, 0x00000000)  returns 0x00 (0000ms, 0720ms total)
T5D98 001:783 JLINK_SetBPEx(Addr = 0x20000000, Type = 0xFFFFFFF2) -- CPU_ReadMem(2 bytes @ 0x20000000)  returns 0x00000004 (0001ms, 0721ms total)
T5D98 001:784 JLINK_Go() -- CPU_WriteMem(2 bytes @ 0x20000000) (0006ms, 0727ms total)
T5D98 001:790 JLINK_IsHalted() -- CPU_ReadMem(2 bytes @ 0x20000000)  returns TRUE (0013ms, 0740ms total)
T5D98 001:803 JLINK_ReadReg(R15 (PC))  returns 0x20000000 (0000ms, 0727ms total)
T5D98 001:803 JLINK_ClrBPEx(BPHandle = 0x00000004)  returns 0x00 (0000ms, 0727ms total)
T5D98 001:803 JLINK_ReadReg(R0)  returns 0x00000000 (0000ms, 0727ms total)
T5D98 001:804 JLINK_WriteMem(0x20000164, 0x0400 Bytes, ...) -- Data:  50 20 00 20 D9 C2 00 08 A1 8C 00 08 A3 8C 00 08 ... -- CPU_WriteMem(1024 bytes @ 0x20000164)  returns 0x400 (0047ms, 0774ms total)
T5D98 001:851 JLINK_WriteReg(R0, 0x08000000)  returns 0x00 (0000ms, 0774ms total)
T5D98 001:851 JLINK_WriteReg(R1, 0x00000400)  returns 0x00 (0000ms, 0774ms total)
T5D98 001:851 JLINK_WriteReg(R2, 0x20000164)  returns 0x00 (0000ms, 0774ms total)
T5D98 001:851 JLINK_WriteReg(R3, 0x00000000)  returns 0x00 (0000ms, 0774ms total)
T5D98 001:851 JLINK_WriteReg(R4, 0x00000000)  returns 0x00 (0000ms, 0774ms total)
T5D98 001:851 JLINK_WriteReg(R5, 0x00000000)  returns 0x00 (0000ms, 0774ms total)
T5D98 001:851 JLINK_WriteReg(R6, 0x00000000)  returns 0x00 (0001ms, 0775ms total)
T5D98 001:852 JLINK_WriteReg(R7, 0x00000000)  returns 0x00 (0000ms, 0775ms total)
T5D98 001:852 JLINK_WriteReg(R8, 0x00000000)  returns 0x00 (0000ms, 0775ms total)
T5D98 001:852 JLINK_WriteReg(R9, 0x20000160)  returns 0x00 (0000ms, 0775ms total)
T5D98 001:852 JLINK_WriteReg(R10, 0x00000000)  returns 0x00 (0000ms, 0775ms total)
T5D98 001:852 JLINK_WriteReg(R11, 0x00000000)  returns 0x00 (0000ms, 0775ms total)
T5D98 001:852 JLINK_WriteReg(R12, 0x00000000)  returns 0x00 (0000ms, 0775ms total)
T5D98 001:852 JLINK_WriteReg(R13 (SP), 0x20000800)  returns 0x00 (0000ms, 0775ms total)
T5D98 001:852 JLINK_WriteReg(R14, 0x20000001)  returns 0x00 (0000ms, 0775ms total)
T5D98 001:852 JLINK_WriteReg(R15 (PC), 0x200000F4)  returns 0x00 (0000ms, 0775ms total)
T5D98 001:852 JLINK_WriteReg(XPSR, 0x01000000)  returns 0x00 (0000ms, 0775ms total)
T5D98 001:852 JLINK_WriteReg(MSP, 0x20000800)  returns 0x00 (0000ms, 0775ms total)
T5D98 001:852 JLINK_WriteReg(PSP, 0x20000800)  returns 0x00 (0000ms, 0775ms total)
T5D98 001:852 JLINK_WriteReg(CFBP, 0x00000000)  returns 0x00 (0000ms, 0775ms total)
T5D98 001:852 JLINK_SetBPEx(Addr = 0x20000000, Type = 0xFFFFFFF2)  returns 0x00000005 (0000ms, 0775ms total)
T5D98 001:852 JLINK_Go() (0006ms, 0781ms total)
T5D98 001:858 JLINK_IsHalted()  returns FALSE (0001ms, 0782ms total)
T5D98 001:940 JLINK_IsHalted() -- CPU_ReadMem(2 bytes @ 0x20000000)  returns TRUE (0012ms, 0793ms total)
T5D98 001:952 JLINK_ReadReg(R15 (PC))  returns 0x20000000 (0000ms, 0781ms total)
T5D98 001:952 JLINK_ClrBPEx(BPHandle = 0x00000005)  returns 0x00 (0000ms, 0781ms total)
T5D98 001:952 JLINK_ReadReg(R0)  returns 0x00000000 (0000ms, 0781ms total)
T5D98 001:953 JLINK_WriteMem(0x20000164, 0x0400 Bytes, ...) -- Data:  02 99 00 98 11 F0 70 FC 81 46 00 21 11 F0 30 FC ... -- CPU_WriteMem(1024 bytes @ 0x20000164)  returns 0x400 (0046ms, 0827ms total)
T5D98 001:999 JLINK_WriteReg(R0, 0x08000400)  returns 0x00 (0000ms, 0827ms total)
T5D98 001:999 JLINK_WriteReg(R1, 0x00000400)  returns 0x00 (0000ms, 0827ms total)
T5D98 001:999 JLINK_WriteReg(R2, 0x20000164)  returns 0x00 (0000ms, 0827ms total)
T5D98 001:999 JLINK_WriteReg(R3, 0x00000000)  returns 0x00 (0000ms, 0827ms total)
T5D98 001:999 JLINK_WriteReg(R4, 0x00000000)  returns 0x00 (0000ms, 0827ms total)
T5D98 001:999 JLINK_WriteReg(R5, 0x00000000)  returns 0x00 (0000ms, 0827ms total)
T5D98 001:999 JLINK_WriteReg(R6, 0x00000000)  returns 0x00 (0000ms, 0827ms total)
T5D98 001:999 JLINK_WriteReg(R7, 0x00000000)  returns 0x00 (0000ms, 0827ms total)
T5D98 001:999 JLINK_WriteReg(R8, 0x00000000)  returns 0x00 (0000ms, 0827ms total)
T5D98 001:999 JLINK_WriteReg(R9, 0x20000160)  returns 0x00 (0000ms, 0827ms total)
T5D98 001:999 JLINK_WriteReg(R10, 0x00000000)  returns 0x00 (0000ms, 0827ms total)
T5D98 001:999 JLINK_WriteReg(R11, 0x00000000)  returns 0x00 (0000ms, 0827ms total)
T5D98 001:999 JLINK_WriteReg(R12, 0x00000000)  returns 0x00 (0000ms, 0827ms total)
T5D98 001:999 JLINK_WriteReg(R13 (SP), 0x20000800)  returns 0x00 (0000ms, 0827ms total)
T5D98 001:999 JLINK_WriteReg(R14, 0x20000001)  returns 0x00 (0000ms, 0827ms total)
T5D98 001:999 JLINK_WriteReg(R15 (PC), 0x200000F4)  returns 0x00 (0000ms, 0827ms total)
T5D98 001:999 JLINK_WriteReg(XPSR, 0x01000000)  returns 0x00 (0000ms, 0827ms total)
T5D98 001:999 JLINK_WriteReg(MSP, 0x20000800)  returns 0x00 (0000ms, 0827ms total)
T5D98 001:999 JLINK_WriteReg(PSP, 0x20000800)  returns 0x00 (0001ms, 0828ms total)
T5D98 002:000 JLINK_WriteReg(CFBP, 0x00000000)  returns 0x00 (0000ms, 0828ms total)
T5D98 002:000 JLINK_SetBPEx(Addr = 0x20000000, Type = 0xFFFFFFF2)  returns 0x00000006 (0000ms, 0828ms total)
T5D98 002:000 JLINK_Go() (0005ms, 0833ms total)
T5D98 002:005 JLINK_IsHalted()  returns FALSE (0001ms, 0834ms total)
T5D98 002:024 JLINK_IsHalted()  returns FALSE (0001ms, 0834ms total)
T5D98 002:027 JLINK_IsHalted()  returns FALSE (0001ms, 0834ms total)
T5D98 002:072 JLINK_IsHalted() -- CPU_ReadMem(2 bytes @ 0x20000000)  returns TRUE (0012ms, 0845ms total)
T5D98 002:084 JLINK_ReadReg(R15 (PC))  returns 0x20000000 (0000ms, 0833ms total)
T5D98 002:084 JLINK_ClrBPEx(BPHandle = 0x00000006)  returns 0x00 (0000ms, 0833ms total)
T5D98 002:084 JLINK_ReadReg(R0)  returns 0x00000000 (0000ms, 0833ms total)
T5D98 002:085 JLINK_WriteMem(0x20000164, 0x0400 Bytes, ...) -- Data:  06 01 16 98 10 F0 70 FF 22 46 2B 46 CD E9 02 01 ... -- CPU_WriteMem(1024 bytes @ 0x20000164)  returns 0x400 (0045ms, 0878ms total)
T5D98 002:130 JLINK_WriteReg(R0, 0x08000800)  returns 0x00 (0001ms, 0879ms total)
T5D98 002:131 JLINK_WriteReg(R1, 0x00000400)  returns 0x00 (0000ms, 0879ms total)
T5D98 002:131 JLINK_WriteReg(R2, 0x20000164)  returns 0x00 (0000ms, 0879ms total)
T5D98 002:131 JLINK_WriteReg(R3, 0x00000000)  returns 0x00 (0000ms, 0879ms total)
T5D98 002:131 JLINK_WriteReg(R4, 0x00000000)  returns 0x00 (0000ms, 0879ms total)
T5D98 002:131 JLINK_WriteReg(R5, 0x00000000)  returns 0x00 (0000ms, 0879ms total)
T5D98 002:131 JLINK_WriteReg(R6, 0x00000000)  returns 0x00 (0000ms, 0879ms total)
T5D98 002:131 JLINK_WriteReg(R7, 0x00000000)  returns 0x00 (0000ms, 0879ms total)
T5D98 002:131 JLINK_WriteReg(R8, 0x00000000)  returns 0x00 (0000ms, 0879ms total)
T5D98 002:131 JLINK_WriteReg(R9, 0x20000160)  returns 0x00 (0000ms, 0879ms total)
T5D98 002:131 JLINK_WriteReg(R10, 0x00000000)  returns 0x00 (0000ms, 0879ms total)
T5D98 002:131 JLINK_WriteReg(R11, 0x00000000)  returns 0x00 (0000ms, 0879ms total)
T5D98 002:131 JLINK_WriteReg(R12, 0x00000000)  returns 0x00 (0000ms, 0879ms total)
T5D98 002:131 JLINK_WriteReg(R13 (SP), 0x20000800)  returns 0x00 (0000ms, 0879ms total)
T5D98 002:131 JLINK_WriteReg(R14, 0x20000001)  returns 0x00 (0000ms, 0879ms total)
T5D98 002:131 JLINK_WriteReg(R15 (PC), 0x200000F4)  returns 0x00 (0000ms, 0879ms total)
T5D98 002:131 JLINK_WriteReg(XPSR, 0x01000000)  returns 0x00 (0000ms, 0879ms total)
T5D98 002:131 JLINK_WriteReg(MSP, 0x20000800)  returns 0x00 (0000ms, 0879ms total)
T5D98 002:131 JLINK_WriteReg(PSP, 0x20000800)  returns 0x00 (0000ms, 0879ms total)
T5D98 002:131 JLINK_WriteReg(CFBP, 0x00000000)  returns 0x00 (0000ms, 0879ms total)
T5D98 002:131 JLINK_SetBPEx(Addr = 0x20000000, Type = 0xFFFFFFF2)  returns 0x00000007 (0000ms, 0879ms total)
T5D98 002:131 JLINK_Go() (0006ms, 0885ms total)
T5D98 002:137 JLINK_IsHalted()  returns FALSE (0001ms, 0886ms total)
T5D98 002:193 JLINK_IsHalted() -- CPU_ReadMem(2 bytes @ 0x20000000)  returns TRUE (0012ms, 0897ms total)
T5D98 002:205 JLINK_ReadReg(R15 (PC))  returns 0x20000000 (0000ms, 0885ms total)
T5D98 002:205 JLINK_ClrBPEx(BPHandle = 0x00000007)  returns 0x00 (0000ms, 0885ms total)
T5D98 002:205 JLINK_ReadReg(R0)  returns 0x00000000 (0000ms, 0885ms total)
T5D98 002:206 JLINK_WriteMem(0x20000164, 0x0400 Bytes, ...) -- Data:  04 01 00 20 08 01 00 20 28 0B 00 20 1F B5 E3 48 ... -- CPU_WriteMem(1024 bytes @ 0x20000164)  returns 0x400 (0046ms, 0931ms total)
T5D98 002:252 JLINK_WriteReg(R0, 0x08000C00)  returns 0x00 (0000ms, 0931ms total)
T5D98 002:252 JLINK_WriteReg(R1, 0x00000400)  returns 0x00 (0000ms, 0931ms total)
T5D98 002:252 JLINK_WriteReg(R2, 0x20000164)  returns 0x00 (0000ms, 0931ms total)
T5D98 002:252 JLINK_WriteReg(R3, 0x00000000)  returns 0x00 (0000ms, 0931ms total)
T5D98 002:252 JLINK_WriteReg(R4, 0x00000000)  returns 0x00 (0001ms, 0932ms total)
T5D98 002:253 JLINK_WriteReg(R5, 0x00000000)  returns 0x00 (0000ms, 0932ms total)
T5D98 002:253 JLINK_WriteReg(R6, 0x00000000)  returns 0x00 (0000ms, 0932ms total)
T5D98 002:253 JLINK_WriteReg(R7, 0x00000000)  returns 0x00 (0000ms, 0932ms total)
T5D98 002:253 JLINK_WriteReg(R8, 0x00000000)  returns 0x00 (0000ms, 0932ms total)
T5D98 002:253 JLINK_WriteReg(R9, 0x20000160)  returns 0x00 (0000ms, 0932ms total)
T5D98 002:253 JLINK_WriteReg(R10, 0x00000000)  returns 0x00 (0000ms, 0932ms total)
T5D98 002:253 JLINK_WriteReg(R11, 0x00000000)  returns 0x00 (0000ms, 0932ms total)
T5D98 002:253 JLINK_WriteReg(R12, 0x00000000)  returns 0x00 (0000ms, 0932ms total)
T5D98 002:253 JLINK_WriteReg(R13 (SP), 0x20000800)  returns 0x00 (0000ms, 0932ms total)
T5D98 002:253 JLINK_WriteReg(R14, 0x20000001)  returns 0x00 (0000ms, 0932ms total)
T5D98 002:253 JLINK_WriteReg(R15 (PC), 0x200000F4)  returns 0x00 (0000ms, 0932ms total)
T5D98 002:253 JLINK_WriteReg(XPSR, 0x01000000)  returns 0x00 (0000ms, 0932ms total)
T5D98 002:253 JLINK_WriteReg(MSP, 0x20000800)  returns 0x00 (0000ms, 0932ms total)
T5D98 002:253 JLINK_WriteReg(PSP, 0x20000800)  returns 0x00 (0000ms, 0932ms total)
T5D98 002:253 JLINK_WriteReg(CFBP, 0x00000000)  returns 0x00 (0000ms, 0932ms total)
T5D98 002:253 JLINK_SetBPEx(Addr = 0x20000000, Type = 0xFFFFFFF2)  returns 0x00000008 (0000ms, 0932ms total)
T5D98 002:253 JLINK_Go() (0005ms, 0937ms total)
T5D98 002:258 JLINK_IsHalted()  returns FALSE (0001ms, 0938ms total)
T5D98 002:515 JLINK_IsHalted() -- CPU_ReadMem(2 bytes @ 0x20000000)  returns TRUE (0012ms, 0949ms total)
T5D98 002:527 JLINK_ReadReg(R15 (PC))  returns 0x20000000 (0000ms, 0937ms total)
T5D98 002:527 JLINK_ClrBPEx(BPHandle = 0x00000008)  returns 0x00 (0000ms, 0937ms total)
T5D98 002:527 JLINK_ReadReg(R0)  returns 0x00000000 (0000ms, 0937ms total)
T5D98 002:529 JLINK_WriteMem(0x20000164, 0x0400 Bytes, ...) -- Data:  4C 00 00 20 70 B5 04 46 00 26 F7 48 05 88 40 88 ... -- CPU_WriteMem(1024 bytes @ 0x20000164)  returns 0x400 (0047ms, 0984ms total)
T5D98 002:576 JLINK_WriteReg(R0, 0x08001000)  returns 0x00 (0000ms, 0984ms total)
T5D98 002:576 JLINK_WriteReg(R1, 0x00000400)  returns 0x00 (0000ms, 0984ms total)
T5D98 002:576 JLINK_WriteReg(R2, 0x20000164)  returns 0x00 (0000ms, 0984ms total)
T5D98 002:576 JLINK_WriteReg(R3, 0x00000000)  returns 0x00 (0000ms, 0984ms total)
T5D98 002:576 JLINK_WriteReg(R4, 0x00000000)  returns 0x00 (0000ms, 0984ms total)
T5D98 002:576 JLINK_WriteReg(R5, 0x00000000)  returns 0x00 (0000ms, 0984ms total)
T5D98 002:576 JLINK_WriteReg(R6, 0x00000000)  returns 0x00 (0000ms, 0984ms total)
T5D98 002:576 JLINK_WriteReg(R7, 0x00000000)  returns 0x00 (0000ms, 0984ms total)
T5D98 002:576 JLINK_WriteReg(R8, 0x00000000)  returns 0x00 (0000ms, 0984ms total)
T5D98 002:576 JLINK_WriteReg(R9, 0x20000160)  returns 0x00 (0000ms, 0984ms total)
T5D98 002:576 JLINK_WriteReg(R10, 0x00000000)  returns 0x00 (0000ms, 0984ms total)
T5D98 002:576 JLINK_WriteReg(R11, 0x00000000)  returns 0x00 (0000ms, 0984ms total)
T5D98 002:576 JLINK_WriteReg(R12, 0x00000000)  returns 0x00 (0001ms, 0985ms total)
T5D98 002:577 JLINK_WriteReg(R13 (SP), 0x20000800)  returns 0x00 (0000ms, 0985ms total)
T5D98 002:577 JLINK_WriteReg(R14, 0x20000001)  returns 0x00 (0000ms, 0985ms total)
T5D98 002:577 JLINK_WriteReg(R15 (PC), 0x200000F4)  returns 0x00 (0000ms, 0985ms total)
T5D98 002:577 JLINK_WriteReg(XPSR, 0x01000000)  returns 0x00 (0000ms, 0985ms total)
T5D98 002:577 JLINK_WriteReg(MSP, 0x20000800)  returns 0x00 (0000ms, 0985ms total)
T5D98 002:577 JLINK_WriteReg(PSP, 0x20000800)  returns 0x00 (0000ms, 0985ms total)
T5D98 002:577 JLINK_WriteReg(CFBP, 0x00000000)  returns 0x00 (0000ms, 0985ms total)
T5D98 002:577 JLINK_SetBPEx(Addr = 0x20000000, Type = 0xFFFFFFF2)  returns 0x00000009 (0000ms, 0985ms total)
T5D98 002:577 JLINK_Go() (0005ms, 0990ms total)
T5D98 002:582 JLINK_IsHalted()  returns FALSE (0001ms, 0991ms total)
T5D98 002:634 JLINK_IsHalted() -- CPU_ReadMem(2 bytes @ 0x20000000)  returns TRUE (0012ms, 1002ms total)
T5D98 002:646 JLINK_ReadReg(R15 (PC))  returns 0x20000000 (0000ms, 0990ms total)
T5D98 002:646 JLINK_ClrBPEx(BPHandle = 0x00000009)  returns 0x00 (0000ms, 0990ms total)
T5D98 002:646 JLINK_ReadReg(R0)  returns 0x00000000 (0000ms, 0990ms total)
T5D98 002:647 JLINK_WriteMem(0x20000164, 0x0400 Bytes, ...) -- Data:  1A F0 80 0F 03 D0 39 46 28 46 01 F0 9A FC 4F EA ... -- CPU_WriteMem(1024 bytes @ 0x20000164)  returns 0x400 (0046ms, 1036ms total)
T5D98 002:693 JLINK_WriteReg(R0, 0x08001400)  returns 0x00 (0000ms, 1036ms total)
T5D98 002:693 JLINK_WriteReg(R1, 0x00000400)  returns 0x00 (0000ms, 1036ms total)
T5D98 002:693 JLINK_WriteReg(R2, 0x20000164)  returns 0x00 (0000ms, 1036ms total)
T5D98 002:693 JLINK_WriteReg(R3, 0x00000000)  returns 0x00 (0000ms, 1036ms total)
T5D98 002:693 JLINK_WriteReg(R4, 0x00000000)  returns 0x00 (0000ms, 1036ms total)
T5D98 002:693 JLINK_WriteReg(R5, 0x00000000)  returns 0x00 (0000ms, 1036ms total)
T5D98 002:693 JLINK_WriteReg(R6, 0x00000000)  returns 0x00 (0000ms, 1036ms total)
T5D98 002:693 JLINK_WriteReg(R7, 0x00000000)  returns 0x00 (0000ms, 1036ms total)
T5D98 002:693 JLINK_WriteReg(R8, 0x00000000)  returns 0x00 (0000ms, 1036ms total)
T5D98 002:693 JLINK_WriteReg(R9, 0x20000160)  returns 0x00 (0000ms, 1036ms total)
T5D98 002:693 JLINK_WriteReg(R10, 0x00000000)  returns 0x00 (0001ms, 1037ms total)
T5D98 002:694 JLINK_WriteReg(R11, 0x00000000)  returns 0x00 (0000ms, 1037ms total)
T5D98 002:694 JLINK_WriteReg(R12, 0x00000000)  returns 0x00 (0000ms, 1037ms total)
T5D98 002:694 JLINK_WriteReg(R13 (SP), 0x20000800)  returns 0x00 (0000ms, 1037ms total)
T5D98 002:694 JLINK_WriteReg(R14, 0x20000001)  returns 0x00 (0000ms, 1037ms total)
T5D98 002:694 JLINK_WriteReg(R15 (PC), 0x200000F4)  returns 0x00 (0000ms, 1037ms total)
T5D98 002:694 JLINK_WriteReg(XPSR, 0x01000000)  returns 0x00 (0000ms, 1037ms total)
T5D98 002:694 JLINK_WriteReg(MSP, 0x20000800)  returns 0x00 (0000ms, 1037ms total)
T5D98 002:694 JLINK_WriteReg(PSP, 0x20000800)  returns 0x00 (0000ms, 1037ms total)
T5D98 002:694 JLINK_WriteReg(CFBP, 0x00000000)  returns 0x00 (0000ms, 1037ms total)
T5D98 002:694 JLINK_SetBPEx(Addr = 0x20000000, Type = 0xFFFFFFF2)  returns 0x0000000A (0000ms, 1037ms total)
T5D98 002:694 JLINK_Go() (0005ms, 1042ms total)
T5D98 002:699 JLINK_IsHalted()  returns FALSE (0002ms, 1044ms total)
T5D98 002:760 JLINK_IsHalted() -- CPU_ReadMem(2 bytes @ 0x20000000)  returns TRUE (0012ms, 1054ms total)
T5D98 002:772 JLINK_ReadReg(R15 (PC))  returns 0x20000000 (0000ms, 1042ms total)
T5D98 002:772 JLINK_ClrBPEx(BPHandle = 0x0000000A)  returns 0x00 (0000ms, 1042ms total)
T5D98 002:772 JLINK_ReadReg(R0)  returns 0x00000000 (0000ms, 1042ms total)
T5D98 002:773 JLINK_WriteMem(0x20000164, 0x0400 Bytes, ...) -- Data:  0C F0 D4 FF 38 46 0C F0 F5 FF 04 44 00 2E 47 DD ... -- CPU_WriteMem(1024 bytes @ 0x20000164)  returns 0x400 (0046ms, 1088ms total)
T5D98 002:819 JLINK_WriteReg(R0, 0x08001800)  returns 0x00 (0000ms, 1088ms total)
T5D98 002:819 JLINK_WriteReg(R1, 0x00000400)  returns 0x00 (0000ms, 1088ms total)
T5D98 002:819 JLINK_WriteReg(R2, 0x20000164)  returns 0x00 (0000ms, 1088ms total)
T5D98 002:819 JLINK_WriteReg(R3, 0x00000000)  returns 0x00 (0000ms, 1088ms total)
T5D98 002:819 JLINK_WriteReg(R4, 0x00000000)  returns 0x00 (0000ms, 1088ms total)
T5D98 002:819 JLINK_WriteReg(R5, 0x00000000)  returns 0x00 (0000ms, 1088ms total)
T5D98 002:819 JLINK_WriteReg(R6, 0x00000000)  returns 0x00 (0000ms, 1088ms total)
T5D98 002:819 JLINK_WriteReg(R7, 0x00000000)  returns 0x00 (0000ms, 1088ms total)
T5D98 002:819 JLINK_WriteReg(R8, 0x00000000)  returns 0x00 (0000ms, 1088ms total)
T5D98 002:819 JLINK_WriteReg(R9, 0x20000160)  returns 0x00 (0000ms, 1088ms total)
T5D98 002:819 JLINK_WriteReg(R10, 0x00000000)  returns 0x00 (0000ms, 1088ms total)
T5D98 002:819 JLINK_WriteReg(R11, 0x00000000)  returns 0x00 (0000ms, 1088ms total)
T5D98 002:819 JLINK_WriteReg(R12, 0x00000000)  returns 0x00 (0000ms, 1088ms total)
T5D98 002:819 JLINK_WriteReg(R13 (SP), 0x20000800)  returns 0x00 (0000ms, 1088ms total)
T5D98 002:819 JLINK_WriteReg(R14, 0x20000001)  returns 0x00 (0000ms, 1088ms total)
T5D98 002:819 JLINK_WriteReg(R15 (PC), 0x200000F4)  returns 0x00 (0000ms, 1088ms total)
T5D98 002:819 JLINK_WriteReg(XPSR, 0x01000000)  returns 0x00 (0000ms, 1088ms total)
T5D98 002:819 JLINK_WriteReg(MSP, 0x20000800)  returns 0x00 (0000ms, 1088ms total)
T5D98 002:819 JLINK_WriteReg(PSP, 0x20000800)  returns 0x00 (0000ms, 1088ms total)
T5D98 002:819 JLINK_WriteReg(CFBP, 0x00000000)  returns 0x00 (0001ms, 1089ms total)
T5D98 002:820 JLINK_SetBPEx(Addr = 0x20000000, Type = 0xFFFFFFF2)  returns 0x0000000B (0000ms, 1089ms total)
T5D98 002:820 JLINK_Go() (0005ms, 1094ms total)
T5D98 002:825 JLINK_IsHalted()  returns FALSE (0001ms, 1095ms total)
T5D98 002:885 JLINK_IsHalted() -- CPU_ReadMem(2 bytes @ 0x20000000)  returns TRUE (0012ms, 1106ms total)
T5D98 002:898 JLINK_ReadReg(R15 (PC))  returns 0x20000000 (0000ms, 1094ms total)
T5D98 002:898 JLINK_ClrBPEx(BPHandle = 0x0000000B)  returns 0x00 (0000ms, 1094ms total)
T5D98 002:898 JLINK_ReadReg(R0)  returns 0x00000000 (0000ms, 1094ms total)
T5D98 002:898 JLINK_WriteMem(0x20000164, 0x0400 Bytes, ...) -- Data:  02 01 0F F0 5F FB 03 D2 08 20 18 49 08 60 03 E0 ... -- CPU_WriteMem(1024 bytes @ 0x20000164)  returns 0x400 (0046ms, 1140ms total)
T5D98 002:944 JLINK_WriteReg(R0, 0x08001C00)  returns 0x00 (0000ms, 1140ms total)
T5D98 002:944 JLINK_WriteReg(R1, 0x00000400)  returns 0x00 (0000ms, 1140ms total)
T5D98 002:944 JLINK_WriteReg(R2, 0x20000164)  returns 0x00 (0000ms, 1140ms total)
T5D98 002:944 JLINK_WriteReg(R3, 0x00000000)  returns 0x00 (0000ms, 1140ms total)
T5D98 002:944 JLINK_WriteReg(R4, 0x00000000)  returns 0x00 (0000ms, 1140ms total)
T5D98 002:944 JLINK_WriteReg(R5, 0x00000000)  returns 0x00 (0000ms, 1140ms total)
T5D98 002:944 JLINK_WriteReg(R6, 0x00000000)  returns 0x00 (0000ms, 1140ms total)
T5D98 002:944 JLINK_WriteReg(R7, 0x00000000)  returns 0x00 (0000ms, 1140ms total)
T5D98 002:944 JLINK_WriteReg(R8, 0x00000000)  returns 0x00 (0000ms, 1140ms total)
T5D98 002:944 JLINK_WriteReg(R9, 0x20000160)  returns 0x00 (0000ms, 1140ms total)
T5D98 002:944 JLINK_WriteReg(R10, 0x00000000)  returns 0x00 (0000ms, 1140ms total)
T5D98 002:944 JLINK_WriteReg(R11, 0x00000000)  returns 0x00 (0000ms, 1140ms total)
T5D98 002:944 JLINK_WriteReg(R12, 0x00000000)  returns 0x00 (0000ms, 1140ms total)
T5D98 002:944 JLINK_WriteReg(R13 (SP), 0x20000800)  returns 0x00 (0001ms, 1141ms total)
T5D98 002:945 JLINK_WriteReg(R14, 0x20000001)  returns 0x00 (0000ms, 1141ms total)
T5D98 002:945 JLINK_WriteReg(R15 (PC), 0x200000F4)  returns 0x00 (0000ms, 1141ms total)
T5D98 002:945 JLINK_WriteReg(XPSR, 0x01000000)  returns 0x00 (0000ms, 1141ms total)
T5D98 002:945 JLINK_WriteReg(MSP, 0x20000800)  returns 0x00 (0000ms, 1141ms total)
T5D98 002:945 JLINK_WriteReg(PSP, 0x20000800)  returns 0x00 (0000ms, 1141ms total)
T5D98 002:945 JLINK_WriteReg(CFBP, 0x00000000)  returns 0x00 (0000ms, 1141ms total)
T5D98 002:945 JLINK_SetBPEx(Addr = 0x20000000, Type = 0xFFFFFFF2)  returns 0x0000000C (0000ms, 1141ms total)
T5D98 002:945 JLINK_Go() (0005ms, 1146ms total)
T5D98 002:950 JLINK_IsHalted()  returns FALSE (0002ms, 1148ms total)
T5D98 003:192 JLINK_IsHalted() -- CPU_ReadMem(2 bytes @ 0x20000000)  returns TRUE (0012ms, 1158ms total)
T5D98 003:204 JLINK_ReadReg(R15 (PC))  returns 0x20000000 (0000ms, 1146ms total)
T5D98 003:204 JLINK_ClrBPEx(BPHandle = 0x0000000C)  returns 0x00 (0000ms, 1146ms total)
T5D98 003:204 JLINK_ReadReg(R0)  returns 0x00000000 (0000ms, 1146ms total)
T5D98 003:205 JLINK_WriteMem(0x20000164, 0x0400 Bytes, ...) -- Data:  81 01 49 68 08 55 60 1C C4 B2 9D F8 0E 00 A0 42 ... -- CPU_WriteMem(1024 bytes @ 0x20000164)  returns 0x400 (0046ms, 1192ms total)
T5D98 003:251 JLINK_WriteReg(R0, 0x08002000)  returns 0x00 (0000ms, 1192ms total)
T5D98 003:251 JLINK_WriteReg(R1, 0x00000400)  returns 0x00 (0000ms, 1192ms total)
T5D98 003:251 JLINK_WriteReg(R2, 0x20000164)  returns 0x00 (0000ms, 1192ms total)
T5D98 003:251 JLINK_WriteReg(R3, 0x00000000)  returns 0x00 (0000ms, 1192ms total)
T5D98 003:251 JLINK_WriteReg(R4, 0x00000000)  returns 0x00 (0000ms, 1192ms total)
T5D98 003:251 JLINK_WriteReg(R5, 0x00000000)  returns 0x00 (0000ms, 1192ms total)
T5D98 003:251 JLINK_WriteReg(R6, 0x00000000)  returns 0x00 (0000ms, 1192ms total)
T5D98 003:251 JLINK_WriteReg(R7, 0x00000000)  returns 0x00 (0000ms, 1192ms total)
T5D98 003:251 JLINK_WriteReg(R8, 0x00000000)  returns 0x00 (0000ms, 1192ms total)
T5D98 003:251 JLINK_WriteReg(R9, 0x20000160)  returns 0x00 (0000ms, 1192ms total)
T5D98 003:251 JLINK_WriteReg(R10, 0x00000000)  returns 0x00 (0000ms, 1192ms total)
T5D98 003:251 JLINK_WriteReg(R11, 0x00000000)  returns 0x00 (0000ms, 1192ms total)
T5D98 003:251 JLINK_WriteReg(R12, 0x00000000)  returns 0x00 (0000ms, 1192ms total)
T5D98 003:251 JLINK_WriteReg(R13 (SP), 0x20000800)  returns 0x00 (0000ms, 1192ms total)
T5D98 003:251 JLINK_WriteReg(R14, 0x20000001)  returns 0x00 (0000ms, 1192ms total)
T5D98 003:251 JLINK_WriteReg(R15 (PC), 0x200000F4)  returns 0x00 (0000ms, 1192ms total)
T5D98 003:251 JLINK_WriteReg(XPSR, 0x01000000)  returns 0x00 (0000ms, 1192ms total)
T5D98 003:251 JLINK_WriteReg(MSP, 0x20000800)  returns 0x00 (0000ms, 1192ms total)
T5D98 003:251 JLINK_WriteReg(PSP, 0x20000800)  returns 0x00 (0000ms, 1192ms total)
T5D98 003:251 JLINK_WriteReg(CFBP, 0x00000000)  returns 0x00 (0000ms, 1192ms total)
T5D98 003:251 JLINK_SetBPEx(Addr = 0x20000000, Type = 0xFFFFFFF2)  returns 0x0000000D (0000ms, 1192ms total)
T5D98 003:251 JLINK_Go() (0006ms, 1198ms total)
T5D98 003:257 JLINK_IsHalted()  returns FALSE (0001ms, 1199ms total)
T5D98 003:317 JLINK_IsHalted() -- CPU_ReadMem(2 bytes @ 0x20000000)  returns TRUE (0012ms, 1210ms total)
T5D98 003:329 JLINK_ReadReg(R15 (PC))  returns 0x20000000 (0000ms, 1198ms total)
T5D98 003:329 JLINK_ClrBPEx(BPHandle = 0x0000000D)  returns 0x00 (0000ms, 1198ms total)
T5D98 003:329 JLINK_ReadReg(R0)  returns 0x00000000 (0000ms, 1198ms total)
T5D98 003:330 JLINK_WriteMem(0x20000164, 0x0400 Bytes, ...) -- Data:  08 2D E8 DB 70 BD 70 B5 05 46 00 24 1C 48 00 68 ... -- CPU_WriteMem(1024 bytes @ 0x20000164)  returns 0x400 (0046ms, 1244ms total)
T5D98 003:376 JLINK_WriteReg(R0, 0x08002400)  returns 0x00 (0000ms, 1244ms total)
T5D98 003:376 JLINK_WriteReg(R1, 0x00000400)  returns 0x00 (0000ms, 1244ms total)
T5D98 003:376 JLINK_WriteReg(R2, 0x20000164)  returns 0x00 (0000ms, 1244ms total)
T5D98 003:376 JLINK_WriteReg(R3, 0x00000000)  returns 0x00 (0000ms, 1244ms total)
T5D98 003:376 JLINK_WriteReg(R4, 0x00000000)  returns 0x00 (0000ms, 1244ms total)
T5D98 003:376 JLINK_WriteReg(R5, 0x00000000)  returns 0x00 (0000ms, 1244ms total)
T5D98 003:376 JLINK_WriteReg(R6, 0x00000000)  returns 0x00 (0000ms, 1244ms total)
T5D98 003:377 JLINK_WriteReg(R7, 0x00000000)  returns 0x00 (0000ms, 1245ms total)
T5D98 003:377 JLINK_WriteReg(R8, 0x00000000)  returns 0x00 (0000ms, 1245ms total)
T5D98 003:377 JLINK_WriteReg(R9, 0x20000160)  returns 0x00 (0000ms, 1245ms total)
T5D98 003:377 JLINK_WriteReg(R10, 0x00000000)  returns 0x00 (0000ms, 1245ms total)
T5D98 003:377 JLINK_WriteReg(R11, 0x00000000)  returns 0x00 (0000ms, 1245ms total)
T5D98 003:377 JLINK_WriteReg(R12, 0x00000000)  returns 0x00 (0000ms, 1245ms total)
T5D98 003:377 JLINK_WriteReg(R13 (SP), 0x20000800)  returns 0x00 (0000ms, 1245ms total)
T5D98 003:377 JLINK_WriteReg(R14, 0x20000001)  returns 0x00 (0000ms, 1245ms total)
T5D98 003:377 JLINK_WriteReg(R15 (PC), 0x200000F4)  returns 0x00 (0000ms, 1245ms total)
T5D98 003:377 JLINK_WriteReg(XPSR, 0x01000000)  returns 0x00 (0000ms, 1245ms total)
T5D98 003:377 JLINK_WriteReg(MSP, 0x20000800)  returns 0x00 (0000ms, 1245ms total)
T5D98 003:377 JLINK_WriteReg(PSP, 0x20000800)  returns 0x00 (0000ms, 1245ms total)
T5D98 003:377 JLINK_WriteReg(CFBP, 0x00000000)  returns 0x00 (0000ms, 1245ms total)
T5D98 003:377 JLINK_SetBPEx(Addr = 0x20000000, Type = 0xFFFFFFF2)  returns 0x0000000E (0000ms, 1245ms total)
T5D98 003:377 JLINK_Go() (0005ms, 1250ms total)
T5D98 003:382 JLINK_IsHalted()  returns FALSE (0002ms, 1252ms total)
T5D98 003:440 JLINK_IsHalted() -- CPU_ReadMem(2 bytes @ 0x20000000)  returns TRUE (0013ms, 1263ms total)
T5D98 003:453 JLINK_ReadReg(R15 (PC))  returns 0x20000000 (0000ms, 1250ms total)
T5D98 003:453 JLINK_ClrBPEx(BPHandle = 0x0000000E)  returns 0x00 (0000ms, 1250ms total)
T5D98 003:453 JLINK_ReadReg(R0)  returns 0x00000000 (0000ms, 1250ms total)
T5D98 003:453 JLINK_WriteMem(0x20000164, 0x0400 Bytes, ...) -- Data:  10 39 20 D1 BC 49 48 89 FF F7 76 FF 18 12 FF F7 ... -- CPU_WriteMem(1024 bytes @ 0x20000164)  returns 0x400 (0046ms, 1296ms total)
T5D98 003:499 JLINK_WriteReg(R0, 0x08002800)  returns 0x00 (0000ms, 1296ms total)
T5D98 003:499 JLINK_WriteReg(R1, 0x00000400)  returns 0x00 (0000ms, 1296ms total)
T5D98 003:499 JLINK_WriteReg(R2, 0x20000164)  returns 0x00 (0000ms, 1296ms total)
T5D98 003:499 JLINK_WriteReg(R3, 0x00000000)  returns 0x00 (0000ms, 1296ms total)
T5D98 003:499 JLINK_WriteReg(R4, 0x00000000)  returns 0x00 (0000ms, 1296ms total)
T5D98 003:499 JLINK_WriteReg(R5, 0x00000000)  returns 0x00 (0000ms, 1296ms total)
T5D98 003:499 JLINK_WriteReg(R6, 0x00000000)  returns 0x00 (0000ms, 1296ms total)
T5D98 003:499 JLINK_WriteReg(R7, 0x00000000)  returns 0x00 (0000ms, 1296ms total)
T5D98 003:500 JLINK_WriteReg(R8, 0x00000000)  returns 0x00 (0000ms, 1297ms total)
T5D98 003:500 JLINK_WriteReg(R9, 0x20000160)  returns 0x00 (0000ms, 1297ms total)
T5D98 003:500 JLINK_WriteReg(R10, 0x00000000)  returns 0x00 (0000ms, 1297ms total)
T5D98 003:500 JLINK_WriteReg(R11, 0x00000000)  returns 0x00 (0000ms, 1297ms total)
T5D98 003:500 JLINK_WriteReg(R12, 0x00000000)  returns 0x00 (0000ms, 1297ms total)
T5D98 003:500 JLINK_WriteReg(R13 (SP), 0x20000800)  returns 0x00 (0000ms, 1297ms total)
T5D98 003:500 JLINK_WriteReg(R14, 0x20000001)  returns 0x00 (0000ms, 1297ms total)
T5D98 003:500 JLINK_WriteReg(R15 (PC), 0x200000F4)  returns 0x00 (0000ms, 1297ms total)
T5D98 003:500 JLINK_WriteReg(XPSR, 0x01000000)  returns 0x00 (0000ms, 1297ms total)
T5D98 003:500 JLINK_WriteReg(MSP, 0x20000800)  returns 0x00 (0000ms, 1297ms total)
T5D98 003:500 JLINK_WriteReg(PSP, 0x20000800)  returns 0x00 (0000ms, 1297ms total)
T5D98 003:500 JLINK_WriteReg(CFBP, 0x00000000)  returns 0x00 (0000ms, 1297ms total)
T5D98 003:500 JLINK_SetBPEx(Addr = 0x20000000, Type = 0xFFFFFFF2)  returns 0x0000000F (0000ms, 1297ms total)
T5D98 003:500 JLINK_Go() (0006ms, 1303ms total)
T5D98 003:506 JLINK_IsHalted()  returns FALSE (0001ms, 1304ms total)
T5D98 003:559 JLINK_IsHalted() -- CPU_ReadMem(2 bytes @ 0x20000000)  returns TRUE (0012ms, 1315ms total)
T5D98 003:571 JLINK_ReadReg(R15 (PC))  returns 0x20000000 (0000ms, 1303ms total)
T5D98 003:571 JLINK_ClrBPEx(BPHandle = 0x0000000F)  returns 0x00 (0000ms, 1303ms total)
T5D98 003:571 JLINK_ReadReg(R0)  returns 0x00000000 (0000ms, 1303ms total)
T5D98 003:572 JLINK_WriteMem(0x20000164, 0x0400 Bytes, ...) -- Data:  FF F7 7A FD CA 49 09 88 49 1E C1 F3 0F 20 FF F7 ... -- CPU_WriteMem(1024 bytes @ 0x20000164)  returns 0x400 (0046ms, 1349ms total)
T5D98 003:618 JLINK_WriteReg(R0, 0x08002C00)  returns 0x00 (0000ms, 1349ms total)
T5D98 003:618 JLINK_WriteReg(R1, 0x00000400)  returns 0x00 (0000ms, 1349ms total)
T5D98 003:618 JLINK_WriteReg(R2, 0x20000164)  returns 0x00 (0000ms, 1349ms total)
T5D98 003:618 JLINK_WriteReg(R3, 0x00000000)  returns 0x00 (0000ms, 1349ms total)
T5D98 003:618 JLINK_WriteReg(R4, 0x00000000)  returns 0x00 (0000ms, 1349ms total)
T5D98 003:618 JLINK_WriteReg(R5, 0x00000000)  returns 0x00 (0000ms, 1349ms total)
T5D98 003:618 JLINK_WriteReg(R6, 0x00000000)  returns 0x00 (0000ms, 1349ms total)
T5D98 003:618 JLINK_WriteReg(R7, 0x00000000)  returns 0x00 (0000ms, 1349ms total)
T5D98 003:618 JLINK_WriteReg(R8, 0x00000000)  returns 0x00 (0000ms, 1349ms total)
T5D98 003:618 JLINK_WriteReg(R9, 0x20000160)  returns 0x00 (0000ms, 1349ms total)
T5D98 003:618 JLINK_WriteReg(R10, 0x00000000)  returns 0x00 (0000ms, 1349ms total)
T5D98 003:618 JLINK_WriteReg(R11, 0x00000000)  returns 0x00 (0000ms, 1349ms total)
T5D98 003:618 JLINK_WriteReg(R12, 0x00000000)  returns 0x00 (0000ms, 1349ms total)
T5D98 003:618 JLINK_WriteReg(R13 (SP), 0x20000800)  returns 0x00 (0000ms, 1349ms total)
T5D98 003:618 JLINK_WriteReg(R14, 0x20000001)  returns 0x00 (0001ms, 1350ms total)
T5D98 003:619 JLINK_WriteReg(R15 (PC), 0x200000F4)  returns 0x00 (0000ms, 1350ms total)
T5D98 003:619 JLINK_WriteReg(XPSR, 0x01000000)  returns 0x00 (0000ms, 1350ms total)
T5D98 003:619 JLINK_WriteReg(MSP, 0x20000800)  returns 0x00 (0000ms, 1350ms total)
T5D98 003:619 JLINK_WriteReg(PSP, 0x20000800)  returns 0x00 (0000ms, 1350ms total)
T5D98 003:619 JLINK_WriteReg(CFBP, 0x00000000)  returns 0x00 (0000ms, 1350ms total)
T5D98 003:619 JLINK_SetBPEx(Addr = 0x20000000, Type = 0xFFFFFFF2)  returns 0x00000010 (0000ms, 1350ms total)
T5D98 003:619 JLINK_Go() (0005ms, 1355ms total)
T5D98 003:624 JLINK_IsHalted()  returns FALSE (0002ms, 1357ms total)
T5D98 003:711 JLINK_IsHalted() -- CPU_ReadMem(2 bytes @ 0x20000000)  returns TRUE (0012ms, 1367ms total)
T5D98 003:723 JLINK_ReadReg(R15 (PC))  returns 0x20000000 (0000ms, 1355ms total)
T5D98 003:723 JLINK_ClrBPEx(BPHandle = 0x00000010)  returns 0x00 (0000ms, 1355ms total)
T5D98 003:723 JLINK_ReadReg(R0)  returns 0x00000000 (0000ms, 1355ms total)
T5D98 003:724 JLINK_WriteMem(0x20000164, 0x0400 Bytes, ...) -- Data:  04 39 05 D0 CC 48 80 88 A0 F5 A6 41 10 39 06 D1 ... -- CPU_WriteMem(1024 bytes @ 0x20000164)  returns 0x400 (0046ms, 1401ms total)
T5D98 003:770 JLINK_WriteReg(R0, 0x08003000)  returns 0x00 (0000ms, 1401ms total)
T5D98 003:770 JLINK_WriteReg(R1, 0x00000400)  returns 0x00 (0000ms, 1401ms total)
T5D98 003:770 JLINK_WriteReg(R2, 0x20000164)  returns 0x00 (0000ms, 1401ms total)
T5D98 003:770 JLINK_WriteReg(R3, 0x00000000)  returns 0x00 (0000ms, 1401ms total)
T5D98 003:770 JLINK_WriteReg(R4, 0x00000000)  returns 0x00 (0000ms, 1401ms total)
T5D98 003:770 JLINK_WriteReg(R5, 0x00000000)  returns 0x00 (0000ms, 1401ms total)
T5D98 003:770 JLINK_WriteReg(R6, 0x00000000)  returns 0x00 (0000ms, 1401ms total)
T5D98 003:770 JLINK_WriteReg(R7, 0x00000000)  returns 0x00 (0001ms, 1402ms total)
T5D98 003:771 JLINK_WriteReg(R8, 0x00000000)  returns 0x00 (0000ms, 1402ms total)
T5D98 003:771 JLINK_WriteReg(R9, 0x20000160)  returns 0x00 (0000ms, 1402ms total)
T5D98 003:771 JLINK_WriteReg(R10, 0x00000000)  returns 0x00 (0000ms, 1402ms total)
T5D98 003:771 JLINK_WriteReg(R11, 0x00000000)  returns 0x00 (0000ms, 1402ms total)
T5D98 003:771 JLINK_WriteReg(R12, 0x00000000)  returns 0x00 (0000ms, 1402ms total)
T5D98 003:771 JLINK_WriteReg(R13 (SP), 0x20000800)  returns 0x00 (0000ms, 1402ms total)
T5D98 003:771 JLINK_WriteReg(R14, 0x20000001)  returns 0x00 (0000ms, 1402ms total)
T5D98 003:771 JLINK_WriteReg(R15 (PC), 0x200000F4)  returns 0x00 (0000ms, 1402ms total)
T5D98 003:771 JLINK_WriteReg(XPSR, 0x01000000)  returns 0x00 (0000ms, 1402ms total)
T5D98 003:771 JLINK_WriteReg(MSP, 0x20000800)  returns 0x00 (0000ms, 1402ms total)
T5D98 003:771 JLINK_WriteReg(PSP, 0x20000800)  returns 0x00 (0000ms, 1402ms total)
T5D98 003:771 JLINK_WriteReg(CFBP, 0x00000000)  returns 0x00 (0000ms, 1402ms total)
T5D98 003:771 JLINK_SetBPEx(Addr = 0x20000000, Type = 0xFFFFFFF2)  returns 0x00000011 (0000ms, 1402ms total)
T5D98 003:771 JLINK_Go() (0005ms, 1407ms total)
T5D98 003:776 JLINK_IsHalted()  returns FALSE (0002ms, 1409ms total)
T5D98 003:835 JLINK_IsHalted() -- CPU_ReadMem(2 bytes @ 0x20000000)  returns TRUE (0013ms, 1420ms total)
T5D98 003:848 JLINK_ReadReg(R15 (PC))  returns 0x20000000 (0000ms, 1407ms total)
T5D98 003:848 JLINK_ClrBPEx(BPHandle = 0x00000011)  returns 0x00 (0000ms, 1407ms total)
T5D98 003:848 JLINK_ReadReg(R0)  returns 0x00000000 (0000ms, 1407ms total)
T5D98 003:848 JLINK_WriteMem(0x20000164, 0x0400 Bytes, ...) -- Data:  4F F4 5C 40 FF F7 78 F9 FF F7 7D F9 D3 49 89 88 ... -- CPU_WriteMem(1024 bytes @ 0x20000164)  returns 0x400 (0046ms, 1453ms total)
T5D98 003:894 JLINK_WriteReg(R0, 0x08003400)  returns 0x00 (0000ms, 1453ms total)
T5D98 003:894 JLINK_WriteReg(R1, 0x00000400)  returns 0x00 (0000ms, 1453ms total)
T5D98 003:894 JLINK_WriteReg(R2, 0x20000164)  returns 0x00 (0000ms, 1453ms total)
T5D98 003:894 JLINK_WriteReg(R3, 0x00000000)  returns 0x00 (0000ms, 1453ms total)
T5D98 003:894 JLINK_WriteReg(R4, 0x00000000)  returns 0x00 (0000ms, 1453ms total)
T5D98 003:894 JLINK_WriteReg(R5, 0x00000000)  returns 0x00 (0000ms, 1453ms total)
T5D98 003:894 JLINK_WriteReg(R6, 0x00000000)  returns 0x00 (0000ms, 1453ms total)
T5D98 003:894 JLINK_WriteReg(R7, 0x00000000)  returns 0x00 (0000ms, 1453ms total)
T5D98 003:894 JLINK_WriteReg(R8, 0x00000000)  returns 0x00 (0000ms, 1453ms total)
T5D98 003:894 JLINK_WriteReg(R9, 0x20000160)  returns 0x00 (0000ms, 1453ms total)
T5D98 003:894 JLINK_WriteReg(R10, 0x00000000)  returns 0x00 (0000ms, 1453ms total)
T5D98 003:894 JLINK_WriteReg(R11, 0x00000000)  returns 0x00 (0000ms, 1453ms total)
T5D98 003:894 JLINK_WriteReg(R12, 0x00000000)  returns 0x00 (0000ms, 1453ms total)
T5D98 003:894 JLINK_WriteReg(R13 (SP), 0x20000800)  returns 0x00 (0000ms, 1453ms total)
T5D98 003:894 JLINK_WriteReg(R14, 0x20000001)  returns 0x00 (0000ms, 1453ms total)
T5D98 003:894 JLINK_WriteReg(R15 (PC), 0x200000F4)  returns 0x00 (0000ms, 1453ms total)
T5D98 003:894 JLINK_WriteReg(XPSR, 0x01000000)  returns 0x00 (0000ms, 1453ms total)
T5D98 003:894 JLINK_WriteReg(MSP, 0x20000800)  returns 0x00 (0000ms, 1453ms total)
T5D98 003:894 JLINK_WriteReg(PSP, 0x20000800)  returns 0x00 (0001ms, 1454ms total)
T5D98 003:895 JLINK_WriteReg(CFBP, 0x00000000)  returns 0x00 (0000ms, 1454ms total)
T5D98 003:895 JLINK_SetBPEx(Addr = 0x20000000, Type = 0xFFFFFFF2)  returns 0x00000012 (0000ms, 1454ms total)
T5D98 003:895 JLINK_Go() (0005ms, 1459ms total)
T5D98 003:900 JLINK_IsHalted()  returns FALSE (0001ms, 1460ms total)
T5D98 003:957 JLINK_IsHalted() -- CPU_ReadMem(2 bytes @ 0x20000000)  returns TRUE (0012ms, 1471ms total)
T5D98 003:969 JLINK_ReadReg(R15 (PC))  returns 0x20000000 (0000ms, 1459ms total)
